
T0A7C 000:565 SEGGER J-Link V4.90 Log File (0002ms, 0323ms total)
T0A7C 000:565 DLL Compiled: Jul 28 2014 10:35:20 (0002ms, 0323ms total)
T0A7C 000:565 Logging started @ 2019-03-03 15:21 (0002ms, 0323ms total)
T0A7C 000:568 JLINK_SetWarnOutHandler(...) (0000ms, 0324ms total)
T0A7C 000:568 JLINK_OpenEx(...)
Firmware: J-Link ARM-OB STM32 compiled Aug 22 2012 19:52:04
Hardware: V7.00
S/N: 20090928
Feature(s): RDI,FlashDL,FlashBP,JFlash,GDB  returns O.K. (0307ms, 0631ms total)
T0A7C 000:875 JLINK_SetErrorOutHandler(...) (0001ms, 0632ms total)
T0A7C 000:876 JLINK_ExecCommand("ProjectFile = "\\Mac\Home\Documents\Projects\MyFly\9250Æ¬ÉÏ²âÊÔ\USER\JLinkSettings.ini"", ...)  returns 0x00 (0009ms, 0641ms total)
T0A7C 000:894 JLINK_ExecCommand("Device = STM32F407ZG", ...)Device "STM32F407ZG" selected (1024 KB flash, 128 KB RAM).  returns 0x00 (0008ms, 0650ms total)
T0A7C 000:903 JLINK_ExecCommand("DisableConnectionTimeout", ...)  returns 0x01 (0000ms, 0651ms total)
T0A7C 000:904 JLINK_GetHardwareVersion()  returns 0x11170 (0001ms, 0652ms total)
T0A7C 000:905 JLINK_GetDLLVersion()  returns 49000 (0000ms, 0652ms total)
T0A7C 000:905 JLINK_GetFirmwareString(...) (0001ms, 0653ms total)
T0A7C 000:923 JLINK_GetDLLVersion()  returns 49000 (0000ms, 0653ms total)
T0A7C 000:923 JLINK_GetCompileDateTime() (0001ms, 0654ms total)
T0A7C 000:928 JLINK_GetFirmwareString(...) (0001ms, 0655ms total)
T0A7C 000:932 JLINK_GetHardwareVersion()  returns 0x11170 (0001ms, 0656ms total)
T0A7C 000:949 JLINK_TIF_Select(JLINKARM_TIF_SWD)  returns 0x00 (0012ms, 0668ms total)
T0A7C 000:961 JLINK_SetSpeed(1000) (0005ms, 0673ms total)
T0A7C 000:966 JLINK_GetId() >0x108 TIF>Found SWD-DP with ID 0x2BA01477 >0x0D TIF> >0x28 TIF> >0x0D TIF> >0x28 TIF> >0x0D TIF> >0x21 TIF> >0x0D TIF> >0x28 TIF> >0x0D TIF> >0x28 TIF> >0x0D TIF> >0x28 TIF> >0x0D TIF> >0x21 TIF> >0x0D TIF> >0x21 TIF> >0x0D TIF> >0x28 TIF> >0x0D TIF> >0x21 TIF> >0x0D TIF> >0x21 TIF> >0x0D TIF> >0x28 TIF> >0x0D TIF> >0x28 TIF> >0x0D TIF> >0x28 TIF> >0x0D TIF> >0x21 TIF> >0x0D TIF> >0x21 TIF> >0x0D TIF> >0x28 TIF> >0x0D TIF> >0x28 TIF> >0x108 TIF>Found SWD-DP with ID 0x2BA01477
 >0x0D TIF> >0x21 TIF> >0x0D TIF> >0x28 TIF> >0x0D TIF> >0x28 TIF> >0x0D TIF> >0x21 TIF> >0x0D TIF> >0x28 TIF> >0x0D TIF> >0x21 TIF> >0x0D TIF> >0x21 TIF> >0x0D TIF> >0x21 TIF> >0x0D TIF> >0x21 TIF> >0x0D TIF> >0x28 TIF> >0x0D TIF> >0x28 TIF> >0x0D TIF> >0x21 TIF> >0x0D TIF> >0x28 TIF> >0x0D TIF> >0x28 TIF> >0x0D TIF> >0x28 TIF> >0x0D TIF> >0x21 TIF> >0x0D TIF> >0x21 TIF> >0x0D TIF> >0x28 TIF> >0x0D TIF> >0x21 TIF> >0x0D TIF> >0x21 TIF>Found Cortex-M4 r0p1, Little endian.
 -- CPU_WriteMem(4 bytes @ 0xE0002000) -- CPU_ReadMem(4 bytes @ 0xE000EDF0) -- CPU_WriteMem(4 bytes @ 0xE000EDF0) -- CPU_ReadMem(4 bytes @ 0xE0002000)FPUnit: 6 code (BP) slots and 2 literal slots -- CPU_ReadMem(4 bytes @ 0xE000EDFC) -- CPU_WriteMem(4 bytes @ 0xE000EDFC) -- CPU_ReadMem(4 bytes @ 0xE0001000) -- CPU_WriteMem(4 bytes @ 0xE0001000) -- CPU_ReadMem(4 bytes @ 0xE00FF010)TPIU fitted. -- CPU_ReadMem(4 bytes @ 0xE00FF014)ETM fitted. -- CPU_ReadMem(4 bytes @ 0xE00FF018) >0x0D TIF> >0x21 TIF>
  returns 0x2BA01477 (0462ms, 1135ms total)
T0A7C 001:428 JLINK_GetDeviceFamily()  returns 14 (0001ms, 1136ms total)
T0A7C 001:433 JLINK_ReadMem (0xE00FFFF0, 0x0010 Bytes, ...) -- CPU is running -- CPU_ReadMem(16 bytes @ 0xE00FFFF0) - Data: 0D 00 00 00 10 00 00 00 05 00 00 00 B1 00 00 00  returns 0x00 (0012ms, 1148ms total)
T0A7C 001:445 JLINK_ReadMem (0xE00FFFD0, 0x0020 Bytes, ...) -- CPU is running -- CPU_ReadMem(32 bytes @ 0xE00FFFD0) - Data: 00 00 00 00 00 00 00 00 00 00 00 00 00 00 00 00 ...  returns 0x00 (0007ms, 1155ms total)
T0A7C 001:452 JLINK_ReadMem (0xE00FF000, 0x0018 Bytes, ...) -- CPU is running -- CPU_ReadMem(24 bytes @ 0xE00FF000) - Data: 03 F0 F0 FF 03 20 F0 FF 03 30 F0 FF 03 10 F0 FF ...  returns 0x00 (0005ms, 1160ms total)
T0A7C 001:457 JLINK_ReadMemU32(0xE000ED00, 0x0001 Items, ...) -- CPU is running -- CPU_ReadMem(4 bytes @ 0xE000ED00) - Data: 41 C2 0F 41  returns 0x01 (0006ms, 1166ms total)
T0A7C 001:463 JLINK_ReadMemU32(0xE000EF40, 0x0001 Items, ...) -- CPU is running -- CPU_ReadMem(4 bytes @ 0xE000EF40) - Data: 21 00 11 10  returns 0x01 (0006ms, 1172ms total)
T0A7C 001:470 JLINK_ReadMemU32(0xE000EF44, 0x0001 Items, ...) -- CPU is running -- CPU_ReadMem(4 bytes @ 0xE000EF44) - Data: 11 00 00 11  returns 0x01 (0005ms, 1178ms total)
T0A7C 001:475 JLINK_SetResetType(JLINKARM_RESET_TYPE_NORMAL)  returns JLINKARM_RESET_TYPE_NORMAL (0001ms, 1179ms total)
T0A7C 001:476 JLINK_Reset() -- CPU is running -- CPU_WriteMem(4 bytes @ 0xE000EDF0) -- CPU is running -- CPU_WriteMem(4 bytes @ 0xE000EDFC) >0x35 TIF> -- CPU is running -- CPU_WriteMem(4 bytes @ 0xE000ED0C) -- CPU is running -- CPU_ReadMem(4 bytes @ 0xE000EDF0) -- CPU is running -- CPU_ReadMem(4 bytes @ 0xE000EDF0) -- CPU is running -- CPU_ReadMem(4 bytes @ 0xE000EDF0) -- CPU is running -- CPU_WriteMem(4 bytes @ 0xE000EDF0) -- CPU is running -- CPU_WriteMem(4 bytes @ 0xE000EDFC) -- CPU is running
 -- CPU_ReadMem(4 bytes @ 0xE000EDF0) -- CPU_WriteMem(4 bytes @ 0xE0002000) -- CPU_ReadMem(4 bytes @ 0xE000EDFC) -- CPU_ReadMem(4 bytes @ 0xE0001000) (0082ms, 1261ms total)
T0A7C 001:558 JLINK_Halt()  returns 0x00 (0001ms, 1262ms total)
T0A7C 001:559 JLINK_IsHalted()  returns TRUE (0000ms, 1262ms total)
T0A7C 001:559 JLINK_ReadMemU32(0xE000EDF0, 0x0001 Items, ...) -- CPU_ReadMem(4 bytes @ 0xE000EDF0) - Data: 03 00 03 00  returns 0x01 (0006ms, 1268ms total)
T0A7C 001:565 JLINK_WriteU32(0xE000EDF0, 0xA05F0003) -- CPU_WriteMem(4 bytes @ 0xE000EDF0)  returns 0x00 (0006ms, 1274ms total)
T0A7C 001:571 JLINK_WriteU32(0xE000EDFC, 0x01000000) -- CPU_WriteMem(4 bytes @ 0xE000EDFC)  returns 0x00 (0005ms, 1279ms total)
T0A7C 001:587 JLINK_GetHWStatus(...)  returns 0x00 (0003ms, 1283ms total)
T0A7C 001:598 JLINK_GetNumBPUnits(Type = 0xFFFFFF00)  returns 0x06 (0001ms, 1285ms total)
T0A7C 001:599 JLINK_GetNumBPUnits(Type = 0xF0)  returns 0x2000 (0001ms, 1286ms total)
T0A7C 001:600 JLINK_GetNumWPUnits()  returns 0x04 (0001ms, 1287ms total)
T0A7C 001:610 JLINK_GetSpeed()  returns 0x3E8 (0001ms, 1288ms total)
T0A7C 001:625 JLINK_ReadMemU32(0xE000E004, 0x0001 Items, ...) -- CPU_ReadMem(4 bytes @ 0xE000E004) - Data: 02 00 00 00  returns 0x01 (0008ms, 1296ms total)
T0A7C 001:633 JLINK_ReadMemU32(0xE000E004, 0x0001 Items, ...) -- CPU_ReadMem(4 bytes @ 0xE000E004) - Data: 02 00 00 00  returns 0x01 (0005ms, 1301ms total)
T0A7C 001:639 JLINK_WriteMem(0xE0001000, 0x001C Bytes, ...) - Data: 01 00 00 00 00 00 00 00 00 00 00 00 00 00 00 00 ... -- CPU_WriteMem(28 bytes @ 0xE0001000)  returns 0x1C (0006ms, 1308ms total)
T0A7C 001:645 JLINK_ReadMem (0xE0001000, 0x001C Bytes, ...) -- CPU_ReadMem(28 bytes @ 0xE0001000) - Data: 01 00 00 40 00 00 00 00 00 00 00 00 00 00 00 00 ...  returns 0x00 (0009ms, 1317ms total)
T0A7C 001:655 JLINK_Halt()  returns 0x00 (0000ms, 1318ms total)
T0A7C 001:655 JLINK_IsHalted()  returns TRUE (0001ms, 1319ms total)
T0A7C 001:659 JLINK_WriteMem(0x20000000, 0x0180 Bytes, ...) - Data: 00 BE 0A E0 0D 78 2D 06 68 40 08 24 40 00 00 D3 ... -- CPU_WriteMem(384 bytes @ 0x20000000)  returns 0x180 (0017ms, 1335ms total)
T0A7C 001:676 JLINK_WriteReg(R0, 0x08000000)  returns 0x00 (0001ms, 1336ms total)
T0A7C 001:677 JLINK_WriteReg(R1, 0x007A1200)  returns 0x00 (0001ms, 1337ms total)
T0A7C 001:679 JLINK_WriteReg(R2, 0x00000001)  returns 0x00 (0000ms, 1338ms total)
T0A7C 001:680 JLINK_WriteReg(R3, 0x00000000)  returns 0x00 (0000ms, 1339ms total)
T0A7C 001:680 JLINK_WriteReg(R4, 0x00000000)  returns 0x00 (0001ms, 1340ms total)
T0A7C 001:681 JLINK_WriteReg(R5, 0x00000000)  returns 0x00 (0000ms, 1340ms total)
T0A7C 001:682 JLINK_WriteReg(R6, 0x00000000)  returns 0x00 (0000ms, 1341ms total)
T0A7C 001:682 JLINK_WriteReg(R7, 0x00000000)  returns 0x00 (0001ms, 1342ms total)
T0A7C 001:683 JLINK_WriteReg(R8, 0x00000000)  returns 0x00 (0001ms, 1343ms total)
T0A7C 001:684 JLINK_WriteReg(R9, 0x2000017C)  returns 0x00 (0000ms, 1343ms total)
T0A7C 001:684 JLINK_WriteReg(R10, 0x00000000)  returns 0x00 (0001ms, 1344ms total)
T0A7C 001:685 JLINK_WriteReg(R11, 0x00000000)  returns 0x00 (0001ms, 1345ms total)
T0A7C 001:686 JLINK_WriteReg(R12, 0x00000000)  returns 0x00 (0001ms, 1346ms total)
T0A7C 001:687 JLINK_WriteReg(R13 (SP), 0x20001000)  returns 0x00 (0000ms, 1346ms total)
T0A7C 001:688 JLINK_WriteReg(R14, 0x20000001)  returns 0x00 (0000ms, 1347ms total)
T0A7C 001:689 JLINK_WriteReg(R15 (PC), 0x20000054)  returns 0x00 (0000ms, 1348ms total)
T0A7C 001:689 JLINK_WriteReg(XPSR, 0x01000000)  returns 0x00 (0001ms, 1349ms total)
T0A7C 001:690 JLINK_WriteReg(MSP, 0x20001000)  returns 0x00 (0000ms, 1349ms total)
T0A7C 001:691 JLINK_WriteReg(PSP, 0x20001000)  returns 0x00 (0000ms, 1350ms total)
T0A7C 001:691 JLINK_WriteReg(CFBP, 0x00000000)  returns 0x00 (0001ms, 1351ms total)
T0A7C 001:692 JLINK_SetBPEx(Addr = 0x20000000, Type = 0xFFFFFFF2) -- CPU_ReadMem(2 bytes @ 0x20000000)  returns 0x00000001 (0004ms, 1355ms total)
T0A7C 001:697 JLINK_Go() -- CPU_WriteMem(2 bytes @ 0x20000000) -- CPU_WriteMem(4 bytes @ 0xE0002008) -- CPU_WriteMem(4 bytes @ 0xE000200C) -- CPU_WriteMem(4 bytes @ 0xE0002010) -- CPU_WriteMem(4 bytes @ 0xE0002014) -- CPU_WriteMem(4 bytes @ 0xE0002018) -- CPU_WriteMem(4 bytes @ 0xE000201C) -- CPU_WriteMem(4 bytes @ 0xE0001004) (0057ms, 1413ms total)
T0A7C 001:754 JLINK_IsHalted() -- CPU_ReadMem(2 bytes @ 0x20000000)  returns TRUE (0025ms, 1438ms total)
T0A7C 001:779 JLINK_ReadReg(R15 (PC))  returns 0x20000000 (0001ms, 1414ms total)
T0A7C 001:780 JLINK_ClrBPEx(BPHandle = 0x00000001)  returns 0x00 (0000ms, 1414ms total)
T0A7C 001:780 JLINK_ReadReg(R0)  returns 0x00000000 (0001ms, 1415ms total)
T0A7C 001:781 JLINK_WriteReg(R0, 0x08000000)  returns 0x00 (0001ms, 1416ms total)
T0A7C 001:782 JLINK_WriteReg(R1, 0x00004000)  returns 0x00 (0000ms, 1416ms total)
T0A7C 001:783 JLINK_WriteReg(R2, 0x000000FF)  returns 0x00 (0000ms, 1417ms total)
T0A7C 001:783 JLINK_WriteReg(R3, 0x00000000)  returns 0x00 (0001ms, 1418ms total)
T0A7C 001:784 JLINK_WriteReg(R4, 0x00000000)  returns 0x00 (0000ms, 1418ms total)
T0A7C 001:785 JLINK_WriteReg(R5, 0x00000000)  returns 0x00 (0000ms, 1419ms total)
T0A7C 001:785 JLINK_WriteReg(R6, 0x00000000)  returns 0x00 (0001ms, 1420ms total)
T0A7C 001:786 JLINK_WriteReg(R7, 0x00000000)  returns 0x00 (0001ms, 1421ms total)
T0A7C 001:787 JLINK_WriteReg(R8, 0x00000000)  returns 0x00 (0000ms, 1421ms total)
T0A7C 001:787 JLINK_WriteReg(R9, 0x2000017C)  returns 0x00 (0002ms, 1423ms total)
T0A7C 001:789 JLINK_WriteReg(R10, 0x00000000)  returns 0x00 (0000ms, 1423ms total)
T0A7C 001:790 JLINK_WriteReg(R11, 0x00000000)  returns 0x00 (0000ms, 1424ms total)
T0A7C 001:790 JLINK_WriteReg(R12, 0x00000000)  returns 0x00 (0001ms, 1425ms total)
T0A7C 001:791 JLINK_WriteReg(R13 (SP), 0x20001000)  returns 0x00 (0001ms, 1426ms total)
T0A7C 001:792 JLINK_WriteReg(R14, 0x20000001)  returns 0x00 (0000ms, 1426ms total)
T0A7C 001:792 JLINK_WriteReg(R15 (PC), 0x20000020)  returns 0x00 (0001ms, 1427ms total)
T0A7C 001:793 JLINK_WriteReg(XPSR, 0x01000000)  returns 0x00 (0000ms, 1427ms total)
T0A7C 001:793 JLINK_WriteReg(MSP, 0x20001000)  returns 0x00 (0001ms, 1428ms total)
T0A7C 001:794 JLINK_WriteReg(PSP, 0x20001000)  returns 0x00 (0001ms, 1429ms total)
T0A7C 001:795 JLINK_WriteReg(CFBP, 0x00000000)  returns 0x00 (0000ms, 1429ms total)
T0A7C 001:795 JLINK_SetBPEx(Addr = 0x20000000, Type = 0xFFFFFFF2)  returns 0x00000002 (0001ms, 1430ms total)
T0A7C 001:796 JLINK_Go() (0008ms, 1438ms total)
T0A7C 001:804 JLINK_IsHalted() -- CPU_ReadMem(2 bytes @ 0x20000000)  returns TRUE (0022ms, 1460ms total)
T0A7C 001:826 JLINK_ReadReg(R15 (PC))  returns 0x20000000 (0001ms, 1439ms total)
T0A7C 001:827 JLINK_ClrBPEx(BPHandle = 0x00000002)  returns 0x00 (0000ms, 1439ms total)
T0A7C 001:827 JLINK_ReadReg(R0)  returns 0x00000001 (0001ms, 1440ms total)
T0A7C 001:828 JLINK_WriteReg(R0, 0x08000000)  returns 0x00 (0000ms, 1440ms total)
T0A7C 001:829 JLINK_WriteReg(R1, 0x00004000)  returns 0x00 (0000ms, 1441ms total)
T0A7C 001:829 JLINK_WriteReg(R2, 0x000000FF)  returns 0x00 (0001ms, 1442ms total)
T0A7C 001:830 JLINK_WriteReg(R3, 0x00000000)  returns 0x00 (0001ms, 1443ms total)
T0A7C 001:831 JLINK_WriteReg(R4, 0x00000000)  returns 0x00 (0001ms, 1444ms total)
T0A7C 001:832 JLINK_WriteReg(R5, 0x00000000)  returns 0x00 (0001ms, 1445ms total)
T0A7C 001:834 JLINK_WriteReg(R6, 0x00000000)  returns 0x00 (0001ms, 1447ms total)
T0A7C 001:835 JLINK_WriteReg(R7, 0x00000000)  returns 0x00 (0000ms, 1447ms total)
T0A7C 001:835 JLINK_WriteReg(R8, 0x00000000)  returns 0x00 (0004ms, 1451ms total)
T0A7C 001:839 JLINK_WriteReg(R9, 0x2000017C)  returns 0x00 (0001ms, 1452ms total)
T0A7C 001:841 JLINK_WriteReg(R10, 0x00000000)  returns 0x00 (0000ms, 1453ms total)
T0A7C 001:841 JLINK_WriteReg(R11, 0x00000000)  returns 0x00 (0001ms, 1454ms total)
T0A7C 001:842 JLINK_WriteReg(R12, 0x00000000)  returns 0x00 (0001ms, 1455ms total)
T0A7C 001:843 JLINK_WriteReg(R13 (SP), 0x20001000)  returns 0x00 (0000ms, 1455ms total)
T0A7C 001:843 JLINK_WriteReg(R14, 0x20000001)  returns 0x00 (0001ms, 1456ms total)
T0A7C 001:844 JLINK_WriteReg(R15 (PC), 0x200000BC)  returns 0x00 (0000ms, 1456ms total)
T0A7C 001:844 JLINK_WriteReg(XPSR, 0x01000000)  returns 0x00 (0001ms, 1457ms total)
T0A7C 001:845 JLINK_WriteReg(MSP, 0x20001000)  returns 0x00 (0000ms, 1457ms total)
T0A7C 001:845 JLINK_WriteReg(PSP, 0x20001000)  returns 0x00 (0000ms, 1457ms total)
T0A7C 001:846 JLINK_WriteReg(CFBP, 0x00000000)  returns 0x00 (0000ms, 1458ms total)
T0A7C 001:846 JLINK_SetBPEx(Addr = 0x20000000, Type = 0xFFFFFFF2)  returns 0x00000003 (0001ms, 1459ms total)
T0A7C 001:847 JLINK_Go() (0011ms, 1470ms total)
T0A7C 001:858 JLINK_IsHalted()  returns FALSE (0006ms, 1476ms total)
T0A7C 001:910 JLINK_IsHalted()  returns FALSE (0004ms, 1474ms total)
T0A7C 001:915 JLINK_IsHalted()  returns FALSE (0005ms, 1475ms total)
T0A7C 001:925 JLINK_IsHalted()  returns FALSE (0003ms, 1473ms total)
T0A7C 001:929 JLINK_IsHalted()  returns FALSE (0005ms, 1475ms total)
T0A7C 001:944 JLINK_IsHalted()  returns FALSE (0004ms, 1474ms total)
T0A7C 001:951 JLINK_IsHalted()  returns FALSE (0004ms, 1474ms total)
T0A7C 001:957 JLINK_IsHalted()  returns FALSE (0005ms, 1475ms total)
T0A7C 001:966 JLINK_IsHalted()  returns FALSE (0004ms, 1474ms total)
T0A7C 001:971 JLINK_IsHalted()  returns FALSE (0008ms, 1478ms total)
T0A7C 001:983 JLINK_IsHalted()  returns FALSE (0005ms, 1475ms total)
T0A7C 001:989 JLINK_IsHalted()  returns FALSE (0004ms, 1474ms total)
T0A7C 001:996 JLINK_IsHalted()  returns FALSE (0005ms, 1475ms total)
T0A7C 002:002 JLINK_IsHalted()  returns FALSE (0004ms, 1474ms total)
T0A7C 002:007 JLINK_IsHalted()  returns FALSE (0005ms, 1475ms total)
T0A7C 002:013 JLINK_IsHalted()  returns FALSE (0004ms, 1474ms total)
T0A7C 002:019 JLINK_IsHalted()  returns FALSE (0005ms, 1475ms total)
T0A7C 002:025 JLINK_IsHalted()  returns FALSE (0005ms, 1475ms total)
T0A7C 002:032 JLINK_IsHalted()  returns FALSE (0003ms, 1473ms total)
T0A7C 002:036 JLINK_IsHalted()  returns FALSE (0005ms, 1475ms total)
T0A7C 002:049 JLINK_IsHalted()  returns FALSE (0006ms, 1476ms total)
T0A7C 002:056 JLINK_IsHalted()  returns FALSE (0004ms, 1474ms total)
T0A7C 002:063 JLINK_IsHalted()  returns FALSE (0005ms, 1475ms total)
T0A7C 002:069 JLINK_IsHalted()  returns FALSE (0004ms, 1474ms total)
T0A7C 002:075 JLINK_IsHalted()  returns FALSE (0006ms, 1476ms total)
T0A7C 002:082 JLINK_IsHalted()  returns FALSE (0007ms, 1477ms total)
T0A7C 002:094 JLINK_IsHalted()  returns FALSE (0004ms, 1474ms total)
T0A7C 002:100 JLINK_IsHalted()  returns FALSE (0005ms, 1475ms total)
T0A7C 002:108 JLINK_IsHalted()  returns FALSE (0003ms, 1473ms total)
T0A7C 002:112 JLINK_IsHalted()  returns FALSE (0004ms, 1474ms total)
T0A7C 002:117 JLINK_IsHalted()  returns FALSE (0004ms, 1474ms total)
T0A7C 002:122 JLINK_IsHalted()  returns FALSE (0004ms, 1474ms total)
T0A7C 002:127 JLINK_IsHalted()  returns FALSE (0005ms, 1475ms total)
T0A7C 002:133 JLINK_IsHalted()  returns FALSE (0004ms, 1474ms total)
T0A7C 002:140 JLINK_IsHalted()  returns FALSE (0004ms, 1474ms total)
T0A7C 002:145 JLINK_IsHalted()  returns FALSE (0005ms, 1475ms total)
T0A7C 002:156 JLINK_IsHalted()  returns FALSE (0003ms, 1473ms total)
T0A7C 002:160 JLINK_IsHalted()  returns FALSE (0006ms, 1476ms total)
T0A7C 002:172 JLINK_IsHalted()  returns FALSE (0006ms, 1476ms total)
T0A7C 002:179 JLINK_IsHalted()  returns FALSE (0004ms, 1474ms total)
T0A7C 002:184 JLINK_IsHalted()  returns FALSE (0005ms, 1475ms total)
T0A7C 002:190 JLINK_IsHalted()  returns FALSE (0004ms, 1474ms total)
T0A7C 002:196 JLINK_IsHalted()  returns FALSE (0004ms, 1474ms total)
T0A7C 002:204 JLINK_IsHalted()  returns FALSE (0006ms, 1476ms total)
T0A7C 002:211 JLINK_IsHalted()  returns FALSE (0004ms, 1474ms total)
T0A7C 002:218 JLINK_IsHalted() -- CPU_ReadMem(2 bytes @ 0x20000000)  returns TRUE (0019ms, 1489ms total)
T0A7C 002:237 JLINK_ReadReg(R15 (PC))  returns 0x20000000 (0001ms, 1471ms total)
T0A7C 002:238 JLINK_ClrBPEx(BPHandle = 0x00000003)  returns 0x00 (0001ms, 1472ms total)
T0A7C 002:239 JLINK_ReadReg(R0)  returns 0x00000000 (0001ms, 1473ms total)
T0A7C 002:241 JLINK_WriteReg(R0, 0x08004000)  returns 0x00 (0000ms, 1473ms total)
T0A7C 002:242 JLINK_WriteReg(R1, 0x00004000)  returns 0x00 (0000ms, 1474ms total)
T0A7C 002:242 JLINK_WriteReg(R2, 0x000000FF)  returns 0x00 (0001ms, 1475ms total)
T0A7C 002:243 JLINK_WriteReg(R3, 0x00000000)  returns 0x00 (0000ms, 1475ms total)
T0A7C 002:243 JLINK_WriteReg(R4, 0x00000000)  returns 0x00 (0001ms, 1476ms total)
T0A7C 002:244 JLINK_WriteReg(R5, 0x00000000)  returns 0x00 (0000ms, 1476ms total)
T0A7C 002:244 JLINK_WriteReg(R6, 0x00000000)  returns 0x00 (0000ms, 1476ms total)
T0A7C 002:245 JLINK_WriteReg(R7, 0x00000000)  returns 0x00 (0000ms, 1477ms total)
T0A7C 002:245 JLINK_WriteReg(R8, 0x00000000)  returns 0x00 (0000ms, 1477ms total)
T0A7C 002:245 JLINK_WriteReg(R9, 0x2000017C)  returns 0x00 (0001ms, 1478ms total)
T0A7C 002:246 JLINK_WriteReg(R10, 0x00000000)  returns 0x00 (0000ms, 1478ms total)
T0A7C 002:246 JLINK_WriteReg(R11, 0x00000000)  returns 0x00 (0001ms, 1479ms total)
T0A7C 002:247 JLINK_WriteReg(R12, 0x00000000)  returns 0x00 (0000ms, 1479ms total)
T0A7C 002:247 JLINK_WriteReg(R13 (SP), 0x20001000)  returns 0x00 (0000ms, 1479ms total)
T0A7C 002:247 JLINK_WriteReg(R14, 0x20000001)  returns 0x00 (0001ms, 1480ms total)
T0A7C 002:248 JLINK_WriteReg(R15 (PC), 0x20000020)  returns 0x00 (0000ms, 1480ms total)
T0A7C 002:248 JLINK_WriteReg(XPSR, 0x01000000)  returns 0x00 (0001ms, 1481ms total)
T0A7C 002:249 JLINK_WriteReg(MSP, 0x20001000)  returns 0x00 (0000ms, 1481ms total)
T0A7C 002:249 JLINK_WriteReg(PSP, 0x20001000)  returns 0x00 (0000ms, 1481ms total)
T0A7C 002:249 JLINK_WriteReg(CFBP, 0x00000000)  returns 0x00 (0001ms, 1482ms total)
T0A7C 002:250 JLINK_SetBPEx(Addr = 0x20000000, Type = 0xFFFFFFF2)  returns 0x00000004 (0000ms, 1482ms total)
T0A7C 002:250 JLINK_Go() (0012ms, 1494ms total)
T0A7C 002:262 JLINK_IsHalted() -- CPU_ReadMem(2 bytes @ 0x20000000)  returns TRUE (0020ms, 1514ms total)
T0A7C 002:282 JLINK_ReadReg(R15 (PC))  returns 0x20000000 (0001ms, 1495ms total)
T0A7C 002:283 JLINK_ClrBPEx(BPHandle = 0x00000004)  returns 0x00 (0001ms, 1496ms total)
T0A7C 002:284 JLINK_ReadReg(R0)  returns 0x00000001 (0000ms, 1496ms total)
T0A7C 002:284 JLINK_WriteReg(R0, 0x08004000)  returns 0x00 (0001ms, 1497ms total)
T0A7C 002:285 JLINK_WriteReg(R1, 0x00004000)  returns 0x00 (0000ms, 1497ms total)
T0A7C 002:285 JLINK_WriteReg(R2, 0x000000FF)  returns 0x00 (0000ms, 1497ms total)
T0A7C 002:285 JLINK_WriteReg(R3, 0x00000000)  returns 0x00 (0001ms, 1498ms total)
T0A7C 002:286 JLINK_WriteReg(R4, 0x00000000)  returns 0x00 (0000ms, 1498ms total)
T0A7C 002:286 JLINK_WriteReg(R5, 0x00000000)  returns 0x00 (0000ms, 1498ms total)
T0A7C 002:286 JLINK_WriteReg(R6, 0x00000000)  returns 0x00 (0001ms, 1499ms total)
T0A7C 002:287 JLINK_WriteReg(R7, 0x00000000)  returns 0x00 (0000ms, 1499ms total)
T0A7C 002:287 JLINK_WriteReg(R8, 0x00000000)  returns 0x00 (0001ms, 1500ms total)
T0A7C 002:288 JLINK_WriteReg(R9, 0x2000017C)  returns 0x00 (0000ms, 1500ms total)
T0A7C 002:288 JLINK_WriteReg(R10, 0x00000000)  returns 0x00 (0001ms, 1501ms total)
T0A7C 002:289 JLINK_WriteReg(R11, 0x00000000)  returns 0x00 (0001ms, 1502ms total)
T0A7C 002:290 JLINK_WriteReg(R12, 0x00000000)  returns 0x00 (0000ms, 1502ms total)
T0A7C 002:290 JLINK_WriteReg(R13 (SP), 0x20001000)  returns 0x00 (0001ms, 1503ms total)
T0A7C 002:291 JLINK_WriteReg(R14, 0x20000001)  returns 0x00 (0000ms, 1503ms total)
T0A7C 002:291 JLINK_WriteReg(R15 (PC), 0x200000BC)  returns 0x00 (0001ms, 1504ms total)
T0A7C 002:292 JLINK_WriteReg(XPSR, 0x01000000)  returns 0x00 (0000ms, 1504ms total)
T0A7C 002:292 JLINK_WriteReg(MSP, 0x20001000)  returns 0x00 (0001ms, 1505ms total)
T0A7C 002:293 JLINK_WriteReg(PSP, 0x20001000)  returns 0x00 (0000ms, 1505ms total)
T0A7C 002:293 JLINK_WriteReg(CFBP, 0x00000000)  returns 0x00 (0001ms, 1506ms total)
T0A7C 002:294 JLINK_SetBPEx(Addr = 0x20000000, Type = 0xFFFFFFF2)  returns 0x00000005 (0000ms, 1506ms total)
T0A7C 002:294 JLINK_Go() (0009ms, 1515ms total)
T0A7C 002:303 JLINK_IsHalted()  returns FALSE (0005ms, 1520ms total)
T0A7C 002:319 JLINK_IsHalted()  returns FALSE (0004ms, 1519ms total)
T0A7C 002:326 JLINK_IsHalted()  returns FALSE (0005ms, 1520ms total)
T0A7C 002:332 JLINK_IsHalted()  returns FALSE (0004ms, 1519ms total)
T0A7C 002:337 JLINK_IsHalted()  returns FALSE (0004ms, 1519ms total)
T0A7C 002:342 JLINK_IsHalted()  returns FALSE (0004ms, 1519ms total)
T0A7C 002:348 JLINK_IsHalted()  returns FALSE (0005ms, 1520ms total)
T0A7C 002:356 JLINK_IsHalted()  returns FALSE (0005ms, 1520ms total)
T0A7C 002:362 JLINK_IsHalted()  returns FALSE (0005ms, 1520ms total)
T0A7C 002:369 JLINK_IsHalted()  returns FALSE (0007ms, 1522ms total)
T0A7C 002:383 JLINK_IsHalted()  returns FALSE (0005ms, 1520ms total)
T0A7C 002:391 JLINK_IsHalted()  returns FALSE (0004ms, 1519ms total)
T0A7C 002:397 JLINK_IsHalted()  returns FALSE (0004ms, 1519ms total)
T0A7C 002:403 JLINK_IsHalted()  returns FALSE (0004ms, 1519ms total)
T0A7C 002:408 JLINK_IsHalted()  returns FALSE (0004ms, 1519ms total)
T0A7C 002:413 JLINK_IsHalted()  returns FALSE (0005ms, 1520ms total)
T0A7C 002:419 JLINK_IsHalted()  returns FALSE (0005ms, 1520ms total)
T0A7C 002:427 JLINK_IsHalted()  returns FALSE (0004ms, 1519ms total)
T0A7C 002:435 JLINK_IsHalted()  returns FALSE (0008ms, 1523ms total)
T0A7C 002:444 JLINK_IsHalted()  returns FALSE (0006ms, 1521ms total)
T0A7C 002:451 JLINK_IsHalted()  returns FALSE (0007ms, 1522ms total)
T0A7C 002:459 JLINK_IsHalted()  returns FALSE (0004ms, 1519ms total)
T0A7C 002:467 JLINK_IsHalted()  returns FALSE (0004ms, 1519ms total)
T0A7C 002:472 JLINK_IsHalted()  returns FALSE (0004ms, 1519ms total)
T0A7C 002:477 JLINK_IsHalted()  returns FALSE (0004ms, 1519ms total)
T0A7C 002:487 JLINK_IsHalted()  returns FALSE (0004ms, 1519ms total)
T0A7C 002:493 JLINK_IsHalted()  returns FALSE (0004ms, 1519ms total)
T0A7C 002:500 JLINK_IsHalted()  returns FALSE (0004ms, 1519ms total)
T0A7C 002:505 JLINK_IsHalted()  returns FALSE (0004ms, 1519ms total)
T0A7C 002:510 JLINK_IsHalted()  returns FALSE (0003ms, 1518ms total)
T0A7C 002:514 JLINK_IsHalted()  returns FALSE (0005ms, 1520ms total)
T0A7C 002:520 JLINK_IsHalted()  returns FALSE (0005ms, 1520ms total)
T0A7C 002:530 JLINK_IsHalted()  returns FALSE (0005ms, 1520ms total)
T0A7C 002:536 JLINK_IsHalted()  returns FALSE (0005ms, 1520ms total)
T0A7C 002:545 JLINK_IsHalted()  returns FALSE (0005ms, 1520ms total)
T0A7C 002:551 JLINK_IsHalted()  returns FALSE (0005ms, 1520ms total)
T0A7C 002:557 JLINK_IsHalted()  returns FALSE (0004ms, 1519ms total)
T0A7C 002:563 JLINK_IsHalted()  returns FALSE (0003ms, 1518ms total)
T0A7C 002:567 JLINK_IsHalted()  returns FALSE (0005ms, 1520ms total)
T0A7C 002:573 JLINK_IsHalted()  returns FALSE (0004ms, 1519ms total)
T0A7C 002:580 JLINK_IsHalted()  returns FALSE (0004ms, 1519ms total)
T0A7C 002:585 JLINK_IsHalted()  returns FALSE (0005ms, 1520ms total)
T0A7C 002:595 JLINK_IsHalted()  returns FALSE (0004ms, 1519ms total)
T0A7C 002:601 JLINK_IsHalted()  returns FALSE (0005ms, 1520ms total)
T0A7C 002:609 JLINK_IsHalted()  returns FALSE (0004ms, 1519ms total)
T0A7C 002:614 JLINK_IsHalted()  returns FALSE (0004ms, 1519ms total)
T0A7C 002:619 JLINK_IsHalted()  returns FALSE (0003ms, 1518ms total)
T0A7C 002:623 JLINK_IsHalted()  returns FALSE (0004ms, 1519ms total)
T0A7C 002:629 JLINK_IsHalted()  returns FALSE (0004ms, 1519ms total)
T0A7C 002:637 JLINK_IsHalted()  returns FALSE (0004ms, 1519ms total)
T0A7C 002:642 JLINK_IsHalted()  returns FALSE (0004ms, 1519ms total)
T0A7C 002:647 JLINK_IsHalted()  returns FALSE (0005ms, 1520ms total)
T0A7C 002:656 JLINK_IsHalted()  returns FALSE (0007ms, 1522ms total)
T0A7C 002:670 JLINK_IsHalted() -- CPU_ReadMem(2 bytes @ 0x20000000)  returns TRUE (0020ms, 1535ms total)
T0A7C 002:690 JLINK_ReadReg(R15 (PC))  returns 0x20000000 (0001ms, 1516ms total)
T0A7C 002:691 JLINK_ClrBPEx(BPHandle = 0x00000005)  returns 0x00 (0001ms, 1517ms total)
T0A7C 002:692 JLINK_ReadReg(R0)  returns 0x00000000 (0001ms, 1518ms total)
T0A7C 002:693 JLINK_WriteReg(R0, 0x08008000)  returns 0x00 (0001ms, 1519ms total)
T0A7C 002:694 JLINK_WriteReg(R1, 0x00004000)  returns 0x00 (0000ms, 1519ms total)
T0A7C 002:694 JLINK_WriteReg(R2, 0x000000FF)  returns 0x00 (0001ms, 1520ms total)
T0A7C 002:695 JLINK_WriteReg(R3, 0x00000000)  returns 0x00 (0000ms, 1520ms total)
T0A7C 002:695 JLINK_WriteReg(R4, 0x00000000)  returns 0x00 (0001ms, 1521ms total)
T0A7C 002:696 JLINK_WriteReg(R5, 0x00000000)  returns 0x00 (0000ms, 1521ms total)
T0A7C 002:696 JLINK_WriteReg(R6, 0x00000000)  returns 0x00 (0000ms, 1521ms total)
T0A7C 002:696 JLINK_WriteReg(R7, 0x00000000)  returns 0x00 (0001ms, 1522ms total)
T0A7C 002:697 JLINK_WriteReg(R8, 0x00000000)  returns 0x00 (0000ms, 1522ms total)
T0A7C 002:697 JLINK_WriteReg(R9, 0x2000017C)  returns 0x00 (0001ms, 1523ms total)
T0A7C 002:698 JLINK_WriteReg(R10, 0x00000000)  returns 0x00 (0000ms, 1523ms total)
T0A7C 002:698 JLINK_WriteReg(R11, 0x00000000)  returns 0x00 (0000ms, 1523ms total)
T0A7C 002:698 JLINK_WriteReg(R12, 0x00000000)  returns 0x00 (0001ms, 1524ms total)
T0A7C 002:699 JLINK_WriteReg(R13 (SP), 0x20001000)  returns 0x00 (0000ms, 1524ms total)
T0A7C 002:699 JLINK_WriteReg(R14, 0x20000001)  returns 0x00 (0000ms, 1524ms total)
T0A7C 002:699 JLINK_WriteReg(R15 (PC), 0x20000020)  returns 0x00 (0001ms, 1525ms total)
T0A7C 002:700 JLINK_WriteReg(XPSR, 0x01000000)  returns 0x00 (0000ms, 1525ms total)
T0A7C 002:700 JLINK_WriteReg(MSP, 0x20001000)  returns 0x00 (0001ms, 1526ms total)
T0A7C 002:701 JLINK_WriteReg(PSP, 0x20001000)  returns 0x00 (0000ms, 1526ms total)
T0A7C 002:701 JLINK_WriteReg(CFBP, 0x00000000)  returns 0x00 (0000ms, 1526ms total)
T0A7C 002:701 JLINK_SetBPEx(Addr = 0x20000000, Type = 0xFFFFFFF2)  returns 0x00000006 (0001ms, 1527ms total)
T0A7C 002:702 JLINK_Go() (0010ms, 1537ms total)
T0A7C 002:712 JLINK_IsHalted() -- CPU_ReadMem(2 bytes @ 0x20000000)  returns TRUE (0021ms, 1558ms total)
T0A7C 002:733 JLINK_ReadReg(R15 (PC))  returns 0x20000000 (0001ms, 1538ms total)
T0A7C 002:734 JLINK_ClrBPEx(BPHandle = 0x00000006)  returns 0x00 (0001ms, 1539ms total)
T0A7C 002:735 JLINK_ReadReg(R0)  returns 0x00000001 (0000ms, 1539ms total)
T0A7C 002:735 JLINK_WriteReg(R0, 0x08008000)  returns 0x00 (0001ms, 1540ms total)
T0A7C 002:736 JLINK_WriteReg(R1, 0x00004000)  returns 0x00 (0000ms, 1540ms total)
T0A7C 002:737 JLINK_WriteReg(R2, 0x000000FF)  returns 0x00 (0000ms, 1541ms total)
T0A7C 002:737 JLINK_WriteReg(R3, 0x00000000)  returns 0x00 (0001ms, 1542ms total)
T0A7C 002:738 JLINK_WriteReg(R4, 0x00000000)  returns 0x00 (0001ms, 1543ms total)
T0A7C 002:739 JLINK_WriteReg(R5, 0x00000000)  returns 0x00 (0001ms, 1544ms total)
T0A7C 002:740 JLINK_WriteReg(R6, 0x00000000)  returns 0x00 (0001ms, 1545ms total)
T0A7C 002:741 JLINK_WriteReg(R7, 0x00000000)  returns 0x00 (0000ms, 1545ms total)
T0A7C 002:742 JLINK_WriteReg(R8, 0x00000000)  returns 0x00 (0000ms, 1546ms total)
T0A7C 002:742 JLINK_WriteReg(R9, 0x2000017C)  returns 0x00 (0000ms, 1546ms total)
T0A7C 002:742 JLINK_WriteReg(R10, 0x00000000)  returns 0x00 (0001ms, 1547ms total)
T0A7C 002:743 JLINK_WriteReg(R11, 0x00000000)  returns 0x00 (0000ms, 1547ms total)
T0A7C 002:743 JLINK_WriteReg(R12, 0x00000000)  returns 0x00 (0001ms, 1548ms total)
T0A7C 002:744 JLINK_WriteReg(R13 (SP), 0x20001000)  returns 0x00 (0000ms, 1548ms total)
T0A7C 002:744 JLINK_WriteReg(R14, 0x20000001)  returns 0x00 (0000ms, 1548ms total)
T0A7C 002:744 JLINK_WriteReg(R15 (PC), 0x200000BC)  returns 0x00 (0001ms, 1549ms total)
T0A7C 002:745 JLINK_WriteReg(XPSR, 0x01000000)  returns 0x00 (0000ms, 1549ms total)
T0A7C 002:745 JLINK_WriteReg(MSP, 0x20001000)  returns 0x00 (0001ms, 1550ms total)
T0A7C 002:746 JLINK_WriteReg(PSP, 0x20001000)  returns 0x00 (0000ms, 1550ms total)
T0A7C 002:746 JLINK_WriteReg(CFBP, 0x00000000)  returns 0x00 (0000ms, 1550ms total)
T0A7C 002:746 JLINK_SetBPEx(Addr = 0x20000000, Type = 0xFFFFFFF2)  returns 0x00000007 (0001ms, 1551ms total)
T0A7C 002:747 JLINK_Go() (0007ms, 1558ms total)
T0A7C 002:755 JLINK_IsHalted()  returns FALSE (0006ms, 1565ms total)
T0A7C 002:776 JLINK_IsHalted()  returns FALSE (0004ms, 1563ms total)
T0A7C 002:781 JLINK_IsHalted()  returns FALSE (0004ms, 1563ms total)
T0A7C 002:786 JLINK_IsHalted()  returns FALSE (0005ms, 1564ms total)
T0A7C 002:792 JLINK_IsHalted()  returns FALSE (0005ms, 1564ms total)
T0A7C 002:800 JLINK_IsHalted()  returns FALSE (0006ms, 1565ms total)
T0A7C 002:813 JLINK_IsHalted()  returns FALSE (0004ms, 1563ms total)
T0A7C 002:819 JLINK_IsHalted()  returns FALSE (0005ms, 1564ms total)
T0A7C 002:827 JLINK_IsHalted()  returns FALSE (0006ms, 1565ms total)
T0A7C 002:834 JLINK_IsHalted()  returns FALSE (0005ms, 1564ms total)
T0A7C 002:841 JLINK_IsHalted()  returns FALSE (0005ms, 1564ms total)
T0A7C 002:847 JLINK_IsHalted()  returns FALSE (0004ms, 1563ms total)
T0A7C 002:852 JLINK_IsHalted()  returns FALSE (0005ms, 1564ms total)
T0A7C 002:863 JLINK_IsHalted()  returns FALSE (0005ms, 1564ms total)
T0A7C 002:870 JLINK_IsHalted()  returns FALSE (0003ms, 1562ms total)
T0A7C 002:875 JLINK_IsHalted()  returns FALSE (0005ms, 1564ms total)
T0A7C 002:881 JLINK_IsHalted()  returns FALSE (0004ms, 1563ms total)
T0A7C 002:886 JLINK_IsHalted()  returns FALSE (0005ms, 1564ms total)
T0A7C 002:892 JLINK_IsHalted()  returns FALSE (0005ms, 1564ms total)
T0A7C 002:901 JLINK_IsHalted()  returns FALSE (0004ms, 1563ms total)
T0A7C 002:906 JLINK_IsHalted()  returns FALSE (0004ms, 1563ms total)
T0A7C 002:916 JLINK_IsHalted()  returns FALSE (0004ms, 1563ms total)
T0A7C 002:930 JLINK_IsHalted()  returns FALSE (0004ms, 1563ms total)
T0A7C 002:937 JLINK_IsHalted()  returns FALSE (0006ms, 1565ms total)
T0A7C 002:944 JLINK_IsHalted()  returns FALSE (0005ms, 1564ms total)
T0A7C 002:953 JLINK_IsHalted()  returns FALSE (0005ms, 1564ms total)
T0A7C 002:959 JLINK_IsHalted()  returns FALSE (0006ms, 1565ms total)
T0A7C 002:969 JLINK_IsHalted()  returns FALSE (0005ms, 1564ms total)
T0A7C 002:976 JLINK_IsHalted()  returns FALSE (0004ms, 1563ms total)
T0A7C 002:982 JLINK_IsHalted()  returns FALSE (0004ms, 1563ms total)
T0A7C 002:987 JLINK_IsHalted()  returns FALSE (0004ms, 1563ms total)
T0A7C 002:992 JLINK_IsHalted()  returns FALSE (0004ms, 1563ms total)
T0A7C 002:997 JLINK_IsHalted()  returns FALSE (0005ms, 1564ms total)
T0A7C 003:003 JLINK_IsHalted()  returns FALSE (0004ms, 1563ms total)
T0A7C 003:011 JLINK_IsHalted()  returns FALSE (0004ms, 1563ms total)
T0A7C 003:021 JLINK_IsHalted()  returns FALSE (0005ms, 1564ms total)
T0A7C 003:033 JLINK_IsHalted()  returns FALSE (0005ms, 1564ms total)
T0A7C 003:039 JLINK_IsHalted()  returns FALSE (0005ms, 1564ms total)
T0A7C 003:046 JLINK_IsHalted()  returns FALSE (0004ms, 1563ms total)
T0A7C 003:051 JLINK_IsHalted()  returns FALSE (0004ms, 1563ms total)
T0A7C 003:057 JLINK_IsHalted()  returns FALSE (0004ms, 1563ms total)
T0A7C 003:063 JLINK_IsHalted()  returns FALSE (0006ms, 1566ms total)
T0A7C 003:073 JLINK_IsHalted()  returns FALSE (0023ms, 1583ms total)
T0A7C 003:099 JLINK_IsHalted()  returns FALSE (0004ms, 1564ms total)
T0A7C 003:104 JLINK_IsHalted()  returns FALSE (0005ms, 1565ms total)
T0A7C 003:110 JLINK_IsHalted() -- CPU_ReadMem(2 bytes @ 0x20000000)  returns TRUE (0018ms, 1578ms total)
T0A7C 003:129 JLINK_ReadReg(R15 (PC))  returns 0x20000000 (0001ms, 1561ms total)
T0A7C 003:130 JLINK_ClrBPEx(BPHandle = 0x00000007)  returns 0x00 (0001ms, 1562ms total)
T0A7C 003:131 JLINK_ReadReg(R0)  returns 0x00000000 (0000ms, 1562ms total)
T0A7C 003:132 JLINK_WriteReg(R0, 0x00000001)  returns 0x00 (0000ms, 1562ms total)
T0A7C 003:132 JLINK_WriteReg(R1, 0x00004000)  returns 0x00 (0001ms, 1563ms total)
T0A7C 003:133 JLINK_WriteReg(R2, 0x000000FF)  returns 0x00 (0000ms, 1563ms total)
T0A7C 003:133 JLINK_WriteReg(R3, 0x00000000)  returns 0x00 (0000ms, 1563ms total)
T0A7C 003:134 JLINK_WriteReg(R4, 0x00000000)  returns 0x00 (0000ms, 1564ms total)
T0A7C 003:134 JLINK_WriteReg(R5, 0x00000000)  returns 0x00 (0000ms, 1564ms total)
T0A7C 003:134 JLINK_WriteReg(R6, 0x00000000)  returns 0x00 (0001ms, 1565ms total)
T0A7C 003:135 JLINK_WriteReg(R7, 0x00000000)  returns 0x00 (0000ms, 1565ms total)
T0A7C 003:135 JLINK_WriteReg(R8, 0x00000000)  returns 0x00 (0000ms, 1565ms total)
T0A7C 003:135 JLINK_WriteReg(R9, 0x2000017C)  returns 0x00 (0001ms, 1566ms total)
T0A7C 003:136 JLINK_WriteReg(R10, 0x00000000)  returns 0x00 (0000ms, 1566ms total)
T0A7C 003:136 JLINK_WriteReg(R11, 0x00000000)  returns 0x00 (0000ms, 1566ms total)
T0A7C 003:137 JLINK_WriteReg(R12, 0x00000000)  returns 0x00 (0000ms, 1567ms total)
T0A7C 003:137 JLINK_WriteReg(R13 (SP), 0x20001000)  returns 0x00 (0000ms, 1567ms total)
T0A7C 003:137 JLINK_WriteReg(R14, 0x20000001)  returns 0x00 (0001ms, 1568ms total)
T0A7C 003:138 JLINK_WriteReg(R15 (PC), 0x20000082)  returns 0x00 (0000ms, 1568ms total)
T0A7C 003:138 JLINK_WriteReg(XPSR, 0x01000000)  returns 0x00 (0000ms, 1568ms total)
T0A7C 003:138 JLINK_WriteReg(MSP, 0x20001000)  returns 0x00 (0001ms, 1569ms total)
T0A7C 003:139 JLINK_WriteReg(PSP, 0x20001000)  returns 0x00 (0000ms, 1569ms total)
T0A7C 003:139 JLINK_WriteReg(CFBP, 0x00000000)  returns 0x00 (0000ms, 1569ms total)
T0A7C 003:140 JLINK_SetBPEx(Addr = 0x20000000, Type = 0xFFFFFFF2)  returns 0x00000008 (0000ms, 1570ms total)
T0A7C 003:140 JLINK_Go() (0010ms, 1580ms total)
T0A7C 003:150 JLINK_IsHalted() -- CPU_ReadMem(2 bytes @ 0x20000000)  returns TRUE (0020ms, 1600ms total)
T0A7C 003:170 JLINK_ReadReg(R15 (PC))  returns 0x20000000 (0001ms, 1581ms total)
T0A7C 003:171 JLINK_ClrBPEx(BPHandle = 0x00000008)  returns 0x00 (0000ms, 1581ms total)
T0A7C 003:171 JLINK_ReadReg(R0)  returns 0x00000000 (0001ms, 1582ms total)
T0A7C 003:229 JLINK_WriteMem(0x20000000, 0x0180 Bytes, ...) - Data: 00 BE 0A E0 0D 78 2D 06 68 40 08 24 40 00 00 D3 ... -- CPU_WriteMem(384 bytes @ 0x20000000)  returns 0x180 (0017ms, 1599ms total)
T0A7C 003:246 JLINK_WriteReg(R0, 0x08000000)  returns 0x00 (0001ms, 1600ms total)
T0A7C 003:247 JLINK_WriteReg(R1, 0x007A1200)  returns 0x00 (0001ms, 1601ms total)
T0A7C 003:248 JLINK_WriteReg(R2, 0x00000002)  returns 0x00 (0001ms, 1602ms total)
T0A7C 003:249 JLINK_WriteReg(R3, 0x00000000)  returns 0x00 (0000ms, 1602ms total)
T0A7C 003:250 JLINK_WriteReg(R4, 0x00000000)  returns 0x00 (0001ms, 1604ms total)
T0A7C 003:251 JLINK_WriteReg(R5, 0x00000000)  returns 0x00 (0001ms, 1605ms total)
T0A7C 003:252 JLINK_WriteReg(R6, 0x00000000)  returns 0x00 (0001ms, 1606ms total)
T0A7C 003:253 JLINK_WriteReg(R7, 0x00000000)  returns 0x00 (0000ms, 1606ms total)
T0A7C 003:253 JLINK_WriteReg(R8, 0x00000000)  returns 0x00 (0001ms, 1607ms total)
T0A7C 003:254 JLINK_WriteReg(R9, 0x2000017C)  returns 0x00 (0000ms, 1607ms total)
T0A7C 003:254 JLINK_WriteReg(R10, 0x00000000)  returns 0x00 (0000ms, 1607ms total)
T0A7C 003:254 JLINK_WriteReg(R11, 0x00000000)  returns 0x00 (0001ms, 1608ms total)
T0A7C 003:255 JLINK_WriteReg(R12, 0x00000000)  returns 0x00 (0000ms, 1608ms total)
T0A7C 003:255 JLINK_WriteReg(R13 (SP), 0x20001000)  returns 0x00 (0000ms, 1608ms total)
T0A7C 003:256 JLINK_WriteReg(R14, 0x20000001)  returns 0x00 (0000ms, 1609ms total)
T0A7C 003:256 JLINK_WriteReg(R15 (PC), 0x20000054)  returns 0x00 (0000ms, 1609ms total)
T0A7C 003:256 JLINK_WriteReg(XPSR, 0x01000000)  returns 0x00 (0001ms, 1610ms total)
T0A7C 003:257 JLINK_WriteReg(MSP, 0x20001000)  returns 0x00 (0000ms, 1610ms total)
T0A7C 003:257 JLINK_WriteReg(PSP, 0x20001000)  returns 0x00 (0000ms, 1610ms total)
T0A7C 003:257 JLINK_WriteReg(CFBP, 0x00000000)  returns 0x00 (0001ms, 1611ms total)
T0A7C 003:258 JLINK_SetBPEx(Addr = 0x20000000, Type = 0xFFFFFFF2) -- CPU_ReadMem(2 bytes @ 0x20000000)  returns 0x00000009 (0007ms, 1618ms total)
T0A7C 003:265 JLINK_Go() -- CPU_WriteMem(2 bytes @ 0x20000000) (0018ms, 1636ms total)
T0A7C 003:283 JLINK_IsHalted() -- CPU_ReadMem(2 bytes @ 0x20000000)  returns TRUE (0021ms, 1657ms total)
T0A7C 003:304 JLINK_ReadReg(R15 (PC))  returns 0x20000000 (0001ms, 1637ms total)
T0A7C 003:305 JLINK_ClrBPEx(BPHandle = 0x00000009)  returns 0x00 (0001ms, 1638ms total)
T0A7C 003:306 JLINK_ReadReg(R0)  returns 0x00000000 (0000ms, 1638ms total)
T0A7C 003:307 JLINK_WriteMem(0x20000180, 0x0400 Bytes, ...) - Data: F8 07 00 20 B1 18 00 08 99 03 00 08 9B 03 00 08 ... -- CPU_WriteMem(1024 bytes @ 0x20000180)  returns 0x400 (0035ms, 1673ms total)
T0A7C 003:343 JLINK_WriteReg(R0, 0x08000000)  returns 0x00 (0000ms, 1674ms total)
T0A7C 003:343 JLINK_WriteReg(R1, 0x00000400)  returns 0x00 (0001ms, 1675ms total)
T0A7C 003:344 JLINK_WriteReg(R2, 0x20000180)  returns 0x00 (0000ms, 1675ms total)
T0A7C 003:345 JLINK_WriteReg(R3, 0x00000000)  returns 0x00 (0000ms, 1676ms total)
T0A7C 003:345 JLINK_WriteReg(R4, 0x00000000)  returns 0x00 (0000ms, 1676ms total)
T0A7C 003:345 JLINK_WriteReg(R5, 0x00000000)  returns 0x00 (0001ms, 1677ms total)
T0A7C 003:346 JLINK_WriteReg(R6, 0x00000000)  returns 0x00 (0000ms, 1677ms total)
T0A7C 003:346 JLINK_WriteReg(R7, 0x00000000)  returns 0x00 (0001ms, 1678ms total)
T0A7C 003:347 JLINK_WriteReg(R8, 0x00000000)  returns 0x00 (0000ms, 1678ms total)
T0A7C 003:347 JLINK_WriteReg(R9, 0x2000017C)  returns 0x00 (0000ms, 1678ms total)
T0A7C 003:347 JLINK_WriteReg(R10, 0x00000000)  returns 0x00 (0001ms, 1679ms total)
T0A7C 003:348 JLINK_WriteReg(R11, 0x00000000)  returns 0x00 (0000ms, 1679ms total)
T0A7C 003:348 JLINK_WriteReg(R12, 0x00000000)  returns 0x00 (0001ms, 1680ms total)
T0A7C 003:349 JLINK_WriteReg(R13 (SP), 0x20001000)  returns 0x00 (0000ms, 1680ms total)
T0A7C 003:349 JLINK_WriteReg(R14, 0x20000001)  returns 0x00 (0000ms, 1680ms total)
T0A7C 003:350 JLINK_WriteReg(R15 (PC), 0x20000108)  returns 0x00 (0000ms, 1681ms total)
T0A7C 003:350 JLINK_WriteReg(XPSR, 0x01000000)  returns 0x00 (0001ms, 1682ms total)
T0A7C 003:351 JLINK_WriteReg(MSP, 0x20001000)  returns 0x00 (0000ms, 1682ms total)
T0A7C 003:351 JLINK_WriteReg(PSP, 0x20001000)  returns 0x00 (0001ms, 1683ms total)
T0A7C 003:352 JLINK_WriteReg(CFBP, 0x00000000)  returns 0x00 (0000ms, 1683ms total)
T0A7C 003:352 JLINK_SetBPEx(Addr = 0x20000000, Type = 0xFFFFFFF2)  returns 0x0000000A (0000ms, 1683ms total)
T0A7C 003:352 JLINK_Go() (0011ms, 1694ms total)
T0A7C 003:363 JLINK_IsHalted() -- CPU_ReadMem(2 bytes @ 0x20000000)  returns TRUE (0018ms, 1712ms total)
T0A7C 003:381 JLINK_ReadReg(R15 (PC))  returns 0x20000000 (0001ms, 1695ms total)
T0A7C 003:382 JLINK_ClrBPEx(BPHandle = 0x0000000A)  returns 0x00 (0001ms, 1696ms total)
T0A7C 003:383 JLINK_ReadReg(R0)  returns 0x00000000 (0001ms, 1697ms total)
T0A7C 003:384 JLINK_WriteMem(0x20000180, 0x0400 Bytes, ...) - Data: 00 68 40 F0 80 50 63 49 40 31 08 60 62 48 00 68 ... -- CPU_WriteMem(1024 bytes @ 0x20000180)  returns 0x400 (0036ms, 1733ms total)
T0A7C 003:420 JLINK_WriteReg(R0, 0x08000400)  returns 0x00 (0001ms, 1734ms total)
T0A7C 003:421 JLINK_WriteReg(R1, 0x00000400)  returns 0x00 (0001ms, 1735ms total)
T0A7C 003:422 JLINK_WriteReg(R2, 0x20000180)  returns 0x00 (0000ms, 1735ms total)
T0A7C 003:422 JLINK_WriteReg(R3, 0x00000000)  returns 0x00 (0001ms, 1736ms total)
T0A7C 003:423 JLINK_WriteReg(R4, 0x00000000)  returns 0x00 (0000ms, 1736ms total)
T0A7C 003:423 JLINK_WriteReg(R5, 0x00000000)  returns 0x00 (0001ms, 1737ms total)
T0A7C 003:424 JLINK_WriteReg(R6, 0x00000000)  returns 0x00 (0000ms, 1737ms total)
T0A7C 003:424 JLINK_WriteReg(R7, 0x00000000)  returns 0x00 (0001ms, 1738ms total)
T0A7C 003:425 JLINK_WriteReg(R8, 0x00000000)  returns 0x00 (0001ms, 1739ms total)
T0A7C 003:426 JLINK_WriteReg(R9, 0x2000017C)  returns 0x00 (0000ms, 1739ms total)
T0A7C 003:426 JLINK_WriteReg(R10, 0x00000000)  returns 0x00 (0001ms, 1740ms total)
T0A7C 003:427 JLINK_WriteReg(R11, 0x00000000)  returns 0x00 (0000ms, 1740ms total)
T0A7C 003:427 JLINK_WriteReg(R12, 0x00000000)  returns 0x00 (0000ms, 1740ms total)
T0A7C 003:427 JLINK_WriteReg(R13 (SP), 0x20001000)  returns 0x00 (0001ms, 1741ms total)
T0A7C 003:428 JLINK_WriteReg(R14, 0x20000001)  returns 0x00 (0000ms, 1741ms total)
T0A7C 003:428 JLINK_WriteReg(R15 (PC), 0x20000108)  returns 0x00 (0000ms, 1741ms total)
T0A7C 003:428 JLINK_WriteReg(XPSR, 0x01000000)  returns 0x00 (0001ms, 1742ms total)
T0A7C 003:429 JLINK_WriteReg(MSP, 0x20001000)  returns 0x00 (0000ms, 1742ms total)
T0A7C 003:429 JLINK_WriteReg(PSP, 0x20001000)  returns 0x00 (0000ms, 1742ms total)
T0A7C 003:430 JLINK_WriteReg(CFBP, 0x00000000)  returns 0x00 (0000ms, 1743ms total)
T0A7C 003:430 JLINK_SetBPEx(Addr = 0x20000000, Type = 0xFFFFFFF2)  returns 0x0000000B (0000ms, 1743ms total)
T0A7C 003:430 JLINK_Go() (0010ms, 1753ms total)
T0A7C 003:441 JLINK_IsHalted() -- CPU_ReadMem(2 bytes @ 0x20000000)  returns TRUE (0024ms, 1778ms total)
T0A7C 003:465 JLINK_ReadReg(R15 (PC))  returns 0x20000000 (0001ms, 1755ms total)
T0A7C 003:466 JLINK_ClrBPEx(BPHandle = 0x0000000B)  returns 0x00 (0001ms, 1756ms total)
T0A7C 003:467 JLINK_ReadReg(R0)  returns 0x00000000 (0001ms, 1757ms total)
T0A7C 003:469 JLINK_WriteMem(0x20000180, 0x0400 Bytes, ...) - Data: 20 F4 40 20 37 49 08 60 08 46 00 68 08 60 00 26 ... -- CPU_WriteMem(1024 bytes @ 0x20000180)  returns 0x400 (0037ms, 1794ms total)
T0A7C 003:506 JLINK_WriteReg(R0, 0x08000800)  returns 0x00 (0001ms, 1795ms total)
T0A7C 003:507 JLINK_WriteReg(R1, 0x00000400)  returns 0x00 (0000ms, 1795ms total)
T0A7C 003:508 JLINK_WriteReg(R2, 0x20000180)  returns 0x00 (0001ms, 1797ms total)
T0A7C 003:509 JLINK_WriteReg(R3, 0x00000000)  returns 0x00 (0001ms, 1798ms total)
T0A7C 003:510 JLINK_WriteReg(R4, 0x00000000)  returns 0x00 (0000ms, 1798ms total)
T0A7C 003:510 JLINK_WriteReg(R5, 0x00000000)  returns 0x00 (0001ms, 1799ms total)
T0A7C 003:511 JLINK_WriteReg(R6, 0x00000000)  returns 0x00 (0000ms, 1799ms total)
T0A7C 003:511 JLINK_WriteReg(R7, 0x00000000)  returns 0x00 (0001ms, 1800ms total)
T0A7C 003:512 JLINK_WriteReg(R8, 0x00000000)  returns 0x00 (0000ms, 1800ms total)
T0A7C 003:512 JLINK_WriteReg(R9, 0x2000017C)  returns 0x00 (0000ms, 1800ms total)
T0A7C 003:512 JLINK_WriteReg(R10, 0x00000000)  returns 0x00 (0001ms, 1801ms total)
T0A7C 003:513 JLINK_WriteReg(R11, 0x00000000)  returns 0x00 (0000ms, 1801ms total)
T0A7C 003:513 JLINK_WriteReg(R12, 0x00000000)  returns 0x00 (0000ms, 1801ms total)
T0A7C 003:514 JLINK_WriteReg(R13 (SP), 0x20001000)  returns 0x00 (0000ms, 1802ms total)
T0A7C 003:514 JLINK_WriteReg(R14, 0x20000001)  returns 0x00 (0000ms, 1802ms total)
T0A7C 003:514 JLINK_WriteReg(R15 (PC), 0x20000108)  returns 0x00 (0001ms, 1803ms total)
T0A7C 003:515 JLINK_WriteReg(XPSR, 0x01000000)  returns 0x00 (0000ms, 1803ms total)
T0A7C 003:515 JLINK_WriteReg(MSP, 0x20001000)  returns 0x00 (0000ms, 1803ms total)
T0A7C 003:515 JLINK_WriteReg(PSP, 0x20001000)  returns 0x00 (0001ms, 1804ms total)
T0A7C 003:516 JLINK_WriteReg(CFBP, 0x00000000)  returns 0x00 (0000ms, 1804ms total)
T0A7C 003:516 JLINK_SetBPEx(Addr = 0x20000000, Type = 0xFFFFFFF2)  returns 0x0000000C (0000ms, 1804ms total)
T0A7C 003:517 JLINK_Go() (0008ms, 1813ms total)
T0A7C 003:525 JLINK_IsHalted() -- CPU_ReadMem(2 bytes @ 0x20000000)  returns TRUE (0023ms, 1836ms total)
T0A7C 003:548 JLINK_ReadReg(R15 (PC))  returns 0x20000000 (0001ms, 1814ms total)
T0A7C 003:549 JLINK_ClrBPEx(BPHandle = 0x0000000C)  returns 0x00 (0001ms, 1815ms total)
T0A7C 003:550 JLINK_ReadReg(R0)  returns 0x00000000 (0000ms, 1815ms total)
T0A7C 003:551 JLINK_WriteMem(0x20000180, 0x0400 Bytes, ...) - Data: 30 EE 20 0A 10 EE 10 1A 08 46 07 F0 D7 FE 41 EC ... -- CPU_WriteMem(1024 bytes @ 0x20000180)  returns 0x400 (0035ms, 1851ms total)
T0A7C 003:587 JLINK_WriteReg(R0, 0x08000C00)  returns 0x00 (0000ms, 1852ms total)
T0A7C 003:587 JLINK_WriteReg(R1, 0x00000400)  returns 0x00 (0001ms, 1853ms total)
T0A7C 003:588 JLINK_WriteReg(R2, 0x20000180)  returns 0x00 (0001ms, 1854ms total)
T0A7C 003:589 JLINK_WriteReg(R3, 0x00000000)  returns 0x00 (0001ms, 1855ms total)
T0A7C 003:590 JLINK_WriteReg(R4, 0x00000000)  returns 0x00 (0001ms, 1856ms total)
T0A7C 003:591 JLINK_WriteReg(R5, 0x00000000)  returns 0x00 (0000ms, 1856ms total)
T0A7C 003:591 JLINK_WriteReg(R6, 0x00000000)  returns 0x00 (0001ms, 1857ms total)
T0A7C 003:592 JLINK_WriteReg(R7, 0x00000000)  returns 0x00 (0000ms, 1857ms total)
T0A7C 003:592 JLINK_WriteReg(R8, 0x00000000)  returns 0x00 (0000ms, 1857ms total)
T0A7C 003:593 JLINK_WriteReg(R9, 0x2000017C)  returns 0x00 (0000ms, 1858ms total)
T0A7C 003:593 JLINK_WriteReg(R10, 0x00000000)  returns 0x00 (0000ms, 1858ms total)
T0A7C 003:593 JLINK_WriteReg(R11, 0x00000000)  returns 0x00 (0001ms, 1859ms total)
T0A7C 003:594 JLINK_WriteReg(R12, 0x00000000)  returns 0x00 (0000ms, 1859ms total)
T0A7C 003:594 JLINK_WriteReg(R13 (SP), 0x20001000)  returns 0x00 (0000ms, 1859ms total)
T0A7C 003:594 JLINK_WriteReg(R14, 0x20000001)  returns 0x00 (0001ms, 1860ms total)
T0A7C 003:595 JLINK_WriteReg(R15 (PC), 0x20000108)  returns 0x00 (0000ms, 1860ms total)
T0A7C 003:595 JLINK_WriteReg(XPSR, 0x01000000)  returns 0x00 (0000ms, 1860ms total)
T0A7C 003:596 JLINK_WriteReg(MSP, 0x20001000)  returns 0x00 (0000ms, 1861ms total)
T0A7C 003:596 JLINK_WriteReg(PSP, 0x20001000)  returns 0x00 (0000ms, 1861ms total)
T0A7C 003:596 JLINK_WriteReg(CFBP, 0x00000000)  returns 0x00 (0001ms, 1862ms total)
T0A7C 003:597 JLINK_SetBPEx(Addr = 0x20000000, Type = 0xFFFFFFF2)  returns 0x0000000D (0000ms, 1862ms total)
T0A7C 003:597 JLINK_Go() (0010ms, 1872ms total)
T0A7C 003:607 JLINK_IsHalted()  returns FALSE (0004ms, 1876ms total)
T0A7C 003:628 JLINK_IsHalted() -- CPU_ReadMem(2 bytes @ 0x20000000)  returns TRUE (0018ms, 1890ms total)
T0A7C 003:647 JLINK_ReadReg(R15 (PC))  returns 0x20000000 (0001ms, 1873ms total)
T0A7C 003:648 JLINK_ClrBPEx(BPHandle = 0x0000000D)  returns 0x00 (0001ms, 1874ms total)
T0A7C 003:649 JLINK_ReadReg(R0)  returns 0x00000000 (0000ms, 1874ms total)
T0A7C 003:650 JLINK_WriteMem(0x20000180, 0x0400 Bytes, ...) - Data: 00 24 FF F7 FD FA E6 A0 05 F0 A2 F8 80 22 6B 21 ... -- CPU_WriteMem(1024 bytes @ 0x20000180)  returns 0x400 (0035ms, 1909ms total)
T0A7C 003:685 JLINK_WriteReg(R0, 0x08001000)  returns 0x00 (0001ms, 1910ms total)
T0A7C 003:686 JLINK_WriteReg(R1, 0x00000400)  returns 0x00 (0001ms, 1911ms total)
T0A7C 003:687 JLINK_WriteReg(R2, 0x20000180)  returns 0x00 (0000ms, 1911ms total)
T0A7C 003:687 JLINK_WriteReg(R3, 0x00000000)  returns 0x00 (0001ms, 1912ms total)
T0A7C 003:688 JLINK_WriteReg(R4, 0x00000000)  returns 0x00 (0000ms, 1912ms total)
T0A7C 003:688 JLINK_WriteReg(R5, 0x00000000)  returns 0x00 (0000ms, 1912ms total)
T0A7C 003:688 JLINK_WriteReg(R6, 0x00000000)  returns 0x00 (0001ms, 1913ms total)
T0A7C 003:689 JLINK_WriteReg(R7, 0x00000000)  returns 0x00 (0000ms, 1913ms total)
T0A7C 003:689 JLINK_WriteReg(R8, 0x00000000)  returns 0x00 (0000ms, 1913ms total)
T0A7C 003:690 JLINK_WriteReg(R9, 0x2000017C)  returns 0x00 (0000ms, 1914ms total)
T0A7C 003:690 JLINK_WriteReg(R10, 0x00000000)  returns 0x00 (0000ms, 1914ms total)
T0A7C 003:690 JLINK_WriteReg(R11, 0x00000000)  returns 0x00 (0001ms, 1915ms total)
T0A7C 003:691 JLINK_WriteReg(R12, 0x00000000)  returns 0x00 (0000ms, 1915ms total)
T0A7C 003:691 JLINK_WriteReg(R13 (SP), 0x20001000)  returns 0x00 (0000ms, 1915ms total)
T0A7C 003:691 JLINK_WriteReg(R14, 0x20000001)  returns 0x00 (0001ms, 1916ms total)
T0A7C 003:692 JLINK_WriteReg(R15 (PC), 0x20000108)  returns 0x00 (0000ms, 1916ms total)
T0A7C 003:692 JLINK_WriteReg(XPSR, 0x01000000)  returns 0x00 (0000ms, 1916ms total)
T0A7C 003:693 JLINK_WriteReg(MSP, 0x20001000)  returns 0x00 (0000ms, 1917ms total)
T0A7C 003:693 JLINK_WriteReg(PSP, 0x20001000)  returns 0x00 (0000ms, 1917ms total)
T0A7C 003:693 JLINK_WriteReg(CFBP, 0x00000000)  returns 0x00 (0001ms, 1918ms total)
T0A7C 003:694 JLINK_SetBPEx(Addr = 0x20000000, Type = 0xFFFFFFF2)  returns 0x0000000E (0000ms, 1918ms total)
T0A7C 003:694 JLINK_Go() (0009ms, 1927ms total)
T0A7C 003:704 JLINK_IsHalted() -- CPU_ReadMem(2 bytes @ 0x20000000)  returns TRUE (0023ms, 1951ms total)
T0A7C 003:727 JLINK_ReadReg(R15 (PC))  returns 0x20000000 (0001ms, 1929ms total)
T0A7C 003:728 JLINK_ClrBPEx(BPHandle = 0x0000000E)  returns 0x00 (0001ms, 1930ms total)
T0A7C 003:729 JLINK_ReadReg(R0)  returns 0x00000000 (0001ms, 1931ms total)
T0A7C 003:730 JLINK_WriteMem(0x20000180, 0x0400 Bytes, ...) - Data: 44 69 73 61 62 6C 65 20 46 49 46 4F 2E 2E 2E 2E ... -- CPU_WriteMem(1024 bytes @ 0x20000180)  returns 0x400 (0036ms, 1967ms total)
T0A7C 003:766 JLINK_WriteReg(R0, 0x08001400)  returns 0x00 (0001ms, 1968ms total)
T0A7C 003:767 JLINK_WriteReg(R1, 0x00000400)  returns 0x00 (0000ms, 1968ms total)
T0A7C 003:768 JLINK_WriteReg(R2, 0x20000180)  returns 0x00 (0000ms, 1969ms total)
T0A7C 003:768 JLINK_WriteReg(R3, 0x00000000)  returns 0x00 (0001ms, 1970ms total)
T0A7C 003:769 JLINK_WriteReg(R4, 0x00000000)  returns 0x00 (0000ms, 1970ms total)
T0A7C 003:769 JLINK_WriteReg(R5, 0x00000000)  returns 0x00 (0001ms, 1971ms total)
T0A7C 003:770 JLINK_WriteReg(R6, 0x00000000)  returns 0x00 (0000ms, 1971ms total)
T0A7C 003:770 JLINK_WriteReg(R7, 0x00000000)  returns 0x00 (0000ms, 1971ms total)
T0A7C 003:771 JLINK_WriteReg(R8, 0x00000000)  returns 0x00 (0000ms, 1972ms total)
